
T082C 000:384 SEGGER J-Link V4.36l Log File (0001ms, 0383ms total)
T082C 000:384 DLL Compiled: Dec  2 2011 18:52:36 (0001ms, 0383ms total)
T082C 000:384 Logging started @ 2013-05-18 20:50 (0001ms, 0383ms total)
T082C 000:385 JLINK_SetWarnOutHandler(...) (0000ms, 0384ms total)
T082C 000:385 JLINK_OpenEx(...)
Firmware: J-Link ARM-OB STM32 compiled Aug 22 2012 19:52:04
Hardware: V7.00
S/N: 20090928
Feature(s): RDI,FlashDL,FlashBP,JFlash,GDBFull  returns O.K. (0120ms, 0384ms total)
T082C 000:505 JLINK_SetErrorOutHandler(...) (0000ms, 0504ms total)
T082C 000:505 JLINK_ExecCommand("Device = STM32F103VE", ...)
                JLINK_ExecCommand("map ram 0x20000000 - 0x2000FFFF", ...)  returns 0x00 (0000ms, 0000ms total)
                JLINK_AddMirrorAreaEx(Addr = 0x00000000, Size = 0x00000000) (0000ms, 0000ms total)
              Device "STM32F103VE" selected (512 KB flash, 64 KB RAM).  returns 0x00 (0003ms, 0504ms total)
T082C 000:508 JLINK_ExecCommand("ProjectFile = "F:\ÖÇÄÜÓãÌÁ×îÖÕ°æ±¾³õ¶¨°æ\APP\JLinkSettings.ini"", ...)  returns 0x00 (0001ms, 0507ms total)
T082C 000:511 JLINK_ExecCommand("DisableConnectionTimeout", ...)  returns 0x00 (0000ms, 0508ms total)
T082C 000:511 JLINK_TIF_Select(JLINKARM_TIF_JTAG)  returns 0x00 (0000ms, 0508ms total)
T082C 000:511 JLINK_SetSpeed(1000) (0000ms, 0508ms total)
T082C 000:511 JLINK_GetHardwareVersion()  returns 0x11170 (0000ms, 0508ms total)
T082C 000:511 JLINK_GetDLLVersion()  returns 43612 (0000ms, 0508ms total)
T082C 000:511 JLINK_GetFirmwareString(...) (0000ms, 0508ms total)
T082C 000:516 JLINK_GetDLLVersion()  returns 43612 (0000ms, 0508ms total)
T082C 000:516 JLINK_GetCompileDateTime() (0000ms, 0508ms total)
T082C 000:518 JLINK_GetFirmwareString(...) (0000ms, 0508ms total)
T082C 000:520 JLINK_GetHardwareVersion()  returns 0x11170 (0000ms, 0508ms total)
T082C 000:525 JLINK_GetIdData(...) >0x2F8 JTAG>TotalIRLen = 9, IRPrint = 0x0011 >0x30 JTAG> >0x210 JTAG> >0x80 JTAG> >0x40 JTAG> >0x40 JTAG> >0x50 JTAG> >0x40 JTAG> >0x40 JTAG> >0x40 JTAG> >0x50 JTAG> >0x40 JTAG> >0x50 JTAG> >0x40 JTAG> >0x40 JTAG> >0x40 JTAG> >0x30 JTAG> >0x40 JTAG> >0x50 JTAG> >0x40 JTAG> >0x38 JTAG> >0x80 JTAG> >0x40 JTAG> >0x40 JTAG> >0x50 JTAG> >0x40 JTAG> >0x40 JTAG> >0x40 JTAG> >0x50 JTAG> >0x40 JTAG> >0x40 JTAG> >0x30 JTAG> >0x40 JTAG> >0x40 JTAG> >0x40 JTAG> >0x40 JTAG>
 >0x40 JTAG> >0x50 JTAG> >0x40 JTAG> >0x80 JTAG> >0x40 JTAG> >0x30 JTAG> >0x40 JTAG> >0x40 JTAG> >0x40 JTAG> >0x40 JTAG> >0x40 JTAG> >0x50 JTAG> >0x40 JTAG> >0x80 JTAG> >0x40 JTAG> >0x30 JTAG> >0x40 JTAG> >0x50 JTAG> >0x40 JTAG> >0x40 JTAG> >0x40 JTAG> >0x30 JTAG> >0x40 JTAG> >0x50 JTAG> >0x40 JTAG>Found Cortex-M3 r1p1, Little endian. >0x50 JTAG> >0x50 JTAG> >0x40 JTAG> >0x40 JTAG> >0x30 JTAG> >0x30 JTAG> >0x50 JTAG> >0x40 JTAG> >0x80 JTAG> >0x40 JTAG> >0x30 JTAG> >0x40 JTAG> >0x50 JTAG> >0x40 JTAG>
 >0x40 JTAG> >0x40 JTAG> >0x30 JTAG> >0x40 JTAG> >0x50 JTAG> >0x40 JTAG>TPIU fitted. >0x40 JTAG> >0x40 JTAG> >0x30 JTAG> >0x40 JTAG> >0x50 JTAG> >0x40 JTAG>ETM fitted. >0x40 JTAG> >0x40 JTAG> >0x30 JTAG> >0x40 JTAG> >0x50 JTAG> >0x40 JTAG> >0x40 JTAG> >0x40 JTAG> >0x30 JTAG> >0x40 JTAG> >0x50 JTAG> >0x40 JTAG>  FPUnit: 6 code (BP) slots and 2 literal slots >0x40 JTAG> >0x40 JTAG> >0x30 JTAG> >0x40 JTAG> >0x50 JTAG> >0x40 JTAG> >0x40 JTAG> >0x40 JTAG> >0x30 JTAG> >0x40 JTAG> >0x50 JTAG> >0x40 JTAG>
 ScanLen=9 NumDevices=2 aId[0]=0x3BA00477 aIrRead[0]=0 aScanLen[0]=0 aScanRead[0]=0 (0072ms, 0508ms total)
T082C 000:597 JLINK_JTAG_GetDeviceID(DeviceIndex = 0)  returns 0x3BA00477 (0000ms, 0580ms total)
T082C 000:597 JLINK_JTAG_GetDeviceInfo(DeviceIndex = 0)  returns 0x00 (0000ms, 0580ms total)
T082C 000:597 JLINK_JTAG_GetDeviceID(DeviceIndex = 1)  returns 0x6414041 (0000ms, 0580ms total)
T082C 000:597 JLINK_JTAG_GetDeviceInfo(DeviceIndex = 1)  returns 0x00 (0000ms, 0580ms total)
T082C 000:597 JLINK_GetDebugInfo(0x100) -- Value=0xE00FF003  returns 0x00 (0000ms, 0580ms total)
T082C 000:599 JLINK_ReadMem (0xE00FFFF0, 0x0010 Bytes, ...) -- CPU is running >0x2B0 JTAG> -- Data:  0D 00 00 00 10 00 00 00 05 00 00 00 B1 00 00 00  returns 0x00 (0002ms, 0580ms total)
T082C 000:601 JLINK_ReadMem (0xE00FFFD0, 0x0020 Bytes, ...) -- CPU is running >0x398 JTAG> -- Data:  00 00 00 00 00 00 00 00 00 00 00 00 00 00 00 00 ...  returns 0x00 (0002ms, 0582ms total)
T082C 000:603 JLINK_ReadMem (0xE00FF000, 0x0018 Bytes, ...) -- CPU is running >0x320 JTAG> -- Data:  03 F0 F0 FF 03 20 F0 FF 03 30 F0 FF 03 10 F0 FF ...  returns 0x00 (0002ms, 0584ms total)
T082C 000:605 JLINK_ReadMemU32(0xE000ED00, 0x0001 Items, ...) -- CPU is running >0x1F0 JTAG> -- Data:  31 C2 1F 41  returns 0x01 (0001ms, 0586ms total)
T082C 000:606 JLINK_SetResetType(JLINKARM_RESET_TYPE_NORMAL)  returns JLINKARM_RESET_TYPE_NORMAL (0000ms, 0587ms total)
T082C 000:606 JLINK_Reset() >0x2F8 JTAG>TotalIRLen = 9, IRPrint = 0x0011 >0x30 JTAG> >0x210 JTAG> >0x80 JTAG> >0x40 JTAG> >0x40 JTAG> >0x50 JTAG> >0x40 JTAG> >0x40 JTAG> >0x40 JTAG> >0x50 JTAG> >0x40 JTAG> >0x50 JTAG> >0x40 JTAG> >0x40 JTAG> >0x40 JTAG> >0x30 JTAG> >0x40 JTAG> >0x50 JTAG> >0x40 JTAG> >0x38 JTAG> >0x80 JTAG> >0x40 JTAG> >0x40 JTAG> >0x50 JTAG> >0x40 JTAG> >0x40 JTAG> >0x40 JTAG> >0x50 JTAG> >0x40 JTAG> >0x40 JTAG> >0x30 JTAG> >0x40 JTAG> >0x40 JTAG> >0x40 JTAG> >0x40 JTAG> >0x40 JTAG>
 >0x50 JTAG> >0x40 JTAG> >0x80 JTAG> >0x40 JTAG> >0x30 JTAG> >0x40 JTAG> >0x40 JTAG> >0x40 JTAG> >0x40 JTAG> >0x40 JTAG> >0x50 JTAG> >0x40 JTAG> >0x80 JTAG> >0x40 JTAG> >0x30 JTAG> >0x40 JTAG> >0x50 JTAG> >0x40 JTAG> >0x40 JTAG> >0x40 JTAG> >0x30 JTAG> >0x40 JTAG> >0x50 JTAG> >0x40 JTAG>Found Cortex-M3 r1p1, Little endian. >0x50 JTAG> >0x50 JTAG> >0x40 JTAG> >0x40 JTAG> >0x30 JTAG> >0x30 JTAG> >0x50 JTAG> >0x40 JTAG> >0x80 JTAG> >0x40 JTAG> >0x30 JTAG> >0x40 JTAG> >0x50 JTAG> >0x40 JTAG> >0x40 JTAG>
 >0x40 JTAG> >0x30 JTAG> >0x40 JTAG> >0x50 JTAG> >0x40 JTAG>TPIU fitted. >0x40 JTAG> >0x40 JTAG> >0x30 JTAG> >0x40 JTAG> >0x50 JTAG> >0x40 JTAG>ETM fitted. >0x40 JTAG> >0x40 JTAG> >0x30 JTAG> >0x40 JTAG> >0x50 JTAG> >0x40 JTAG> >0x40 JTAG> >0x40 JTAG> >0x30 JTAG> >0x40 JTAG> >0x50 JTAG> >0x40 JTAG>  FPUnit: 6 code (BP) slots and 2 literal slots >0x40 JTAG> >0x40 JTAG> >0x30 JTAG> >0x40 JTAG> >0x50 JTAG> >0x40 JTAG> >0x40 JTAG> >0x40 JTAG> >0x30 JTAG> >0x40 JTAG> >0x50 JTAG> >0x40 JTAG> >0x48 JTAG>
 >0x80 JTAG> >0x40 JTAG> >0x40 JTAG> >0x50 JTAG> >0x40 JTAG> >0x40 JTAG> >0x40 JTAG> >0x50 JTAG> >0x40 JTAG> >0x40 JTAG> >0x30 JTAG> >0x40 JTAG> >0x40 JTAG> >0x40 JTAG> >0x40 JTAG> >0x40 JTAG> >0x50 JTAG> >0x40 JTAG> >0x80 JTAG> >0x40 JTAG> >0x30 JTAG> >0x40 JTAG> >0x40 JTAG> >0x40 JTAG> >0x40 JTAG> >0x40 JTAG> >0x50 JTAG> >0x40 JTAG> >0x80 JTAG> >0x40 JTAG> >0x30 JTAG> >0x40 JTAG> >0x50 JTAG> >0x40 JTAG> >0x40 JTAG> >0x40 JTAG> >0x30 JTAG> >0x40 JTAG> >0x50 JTAG> >0x40 JTAG>
Found Cortex-M3 r1p1, Little endian. >0x50 JTAG> >0x50 JTAG> >0x40 JTAG> >0x40 JTAG> >0x30 JTAG> >0x30 JTAG> >0x50 JTAG> >0x40 JTAG> >0x80 JTAG> >0x40 JTAG> >0x30 JTAG> >0x40 JTAG> >0x50 JTAG> >0x40 JTAG> >0x40 JTAG> >0x40 JTAG> >0x30 JTAG> >0x40 JTAG> >0x50 JTAG> >0x40 JTAG>TPIU fitted. >0x40 JTAG> >0x40 JTAG> >0x30 JTAG> >0x40 JTAG> >0x50 JTAG> >0x40 JTAG>ETM fitted. >0x40 JTAG> >0x40 JTAG> >0x30 JTAG> >0x40 JTAG> >0x50 JTAG> >0x40 JTAG> >0x40 JTAG> >0x40 JTAG> >0x30 JTAG> >0x40 JTAG> >0x50 JTAG>
 >0x40 JTAG>  FPUnit: 6 code (BP) slots and 2 literal slots >0x40 JTAG> >0x40 JTAG> >0x30 JTAG> >0x40 JTAG> >0x50 JTAG> >0x40 JTAG> >0x40 JTAG> >0x40 JTAG> >0x30 JTAG> >0x40 JTAG> >0x50 JTAG> >0x40 JTAG> -- CPU is running >0x200 JTAG> -- CPU is running >0x1F0 JTAG> -- CPU is running >0x230 JTAG> -- CPU is running >0x1F0 JTAG> -- CPU is running >0x1F0 JTAG> -- CPU is running >0x1F0 JTAG> -- CPU is running >0x1F0 JTAG> -- CPU is running >0x1F0 JTAG> >0x198 JTAG> >0x17A8 JTAG> >0x40 JTAG> >0x40 JTAG>
 >0x30 JTAG> >0x40 JTAG> >0x50 JTAG> >0x40 JTAG> >0x1F0 JTAG> >0x1F0 JTAG> >0x1F0 JTAG> >0x1F0 JTAG> >0x1F0 JTAG> (0175ms, 0587ms total)
T082C 000:781 JLINK_Halt()  returns 0x00 (0000ms, 0762ms total)
T082C 000:781 JLINK_IsHalted()  returns TRUE (0000ms, 0762ms total)
T082C 000:781 JLINK_ReadMemU32(0xE000EDF0, 0x0001 Items, ...) >0x1F0 JTAG> -- Data:  03 00 03 00  returns 0x01 (0001ms, 0762ms total)
T082C 000:782 JLINK_WriteU32(0xE000EDF0, 0xA05F0003) >0x1F0 JTAG>  returns 0x00 (0002ms, 0763ms total)
T082C 000:784 JLINK_WriteU32(0xE000EDFC, 0x01000000) >0x1F0 JTAG>  returns 0x00 (0001ms, 0765ms total)
T082C 000:791 JLINK_GetHWStatus(...)  returns 0x00 (0001ms, 0766ms total)
T082C 000:797 JLINK_GetNumBPUnits(Type = 0xFFFFFF00)  returns 0x06 (0000ms, 0767ms total)
T082C 000:797 JLINK_GetNumBPUnits(Type = 0xF0)  returns 0x2000 (0000ms, 0767ms total)
T082C 000:797 JLINK_GetNumWPUnits()  returns 0x04 (0000ms, 0767ms total)
T082C 000:800 JLINK_GetSpeed()  returns 0x3E8 (0000ms, 0767ms total)
T082C 000:802 JLINK_ReadMemU32(0xE000E004, 0x0001 Items, ...) >0x1F0 JTAG> -- Data:  01 00 00 00  returns 0x01 (0002ms, 0767ms total)
T082C 000:804 JLINK_ReadMemU32(0xE000E004, 0x0001 Items, ...) >0x1F0 JTAG> -- Data:  01 00 00 00  returns 0x01 (0001ms, 0769ms total)
T082C 000:805 JLINK_WriteMem(0xE0001000, 0x001C Bytes, ...) -- Data:  01 00 00 00 00 00 00 00 00 00 00 00 00 00 00 00 ... >0x310 JTAG>  returns 0x1C (0002ms, 0770ms total)
T082C 000:807 JLINK_ReadMem (0xE0001000, 0x001C Bytes, ...) >0x358 JTAG> -- Data:  01 00 00 40 00 00 00 00 00 00 00 00 00 00 00 00 ...  returns 0x00 (0002ms, 0772ms total)
T082C 000:809 JLINK_Halt()  returns 0x00 (0000ms, 0774ms total)
T082C 000:809 JLINK_IsHalted()  returns TRUE (0000ms, 0774ms total)
T082C 000:812 JLINK_WriteMem(0x20000000, 0x0164 Bytes, ...) -- Data:  00 BE 0A E0 0D 78 2D 06 68 40 08 24 40 00 00 D3 ... >0x1270 JTAG>  returns 0x164 (0008ms, 0774ms total)
T082C 000:820 JLINK_WriteReg(R0, 0x08000000)  returns 0x00 (0000ms, 0782ms total)
T082C 000:821 JLINK_WriteReg(R1, 0x007A1200)  returns 0x00 (0000ms, 0782ms total)
T082C 000:821 JLINK_WriteReg(R2, 0x00000001)  returns 0x00 (0000ms, 0782ms total)
T082C 000:821 JLINK_WriteReg(R3, 0x00000000)  returns 0x00 (0000ms, 0782ms total)
T082C 000:821 JLINK_WriteReg(R4, 0x00000000)  returns 0x00 (0000ms, 0782ms total)
T082C 000:821 JLINK_WriteReg(R5, 0x00000000)  returns 0x00 (0000ms, 0782ms total)
T082C 000:821 JLINK_WriteReg(R6, 0x00000000)  returns 0x00 (0000ms, 0782ms total)
T082C 000:821 JLINK_WriteReg(R7, 0x00000000)  returns 0x00 (0000ms, 0782ms total)
T082C 000:821 JLINK_WriteReg(R8, 0x00000000)  returns 0x00 (0000ms, 0782ms total)
T082C 000:821 JLINK_WriteReg(R9, 0x20000160)  returns 0x00 (0000ms, 0782ms total)
T082C 000:821 JLINK_WriteReg(R10, 0x00000000)  returns 0x00 (0000ms, 0782ms total)
T082C 000:821 JLINK_WriteReg(R11, 0x00000000)  returns 0x00 (0000ms, 0782ms total)
T082C 000:821 JLINK_WriteReg(R12, 0x00000000)  returns 0x00 (0000ms, 0782ms total)
T082C 000:821 JLINK_WriteReg(R13, 0x20000800)  returns 0x00 (0000ms, 0782ms total)
T082C 000:821 JLINK_WriteReg(R14, 0x20000001)  returns 0x00 (0000ms, 0782ms total)
T082C 000:821 JLINK_WriteReg(R15, 0x20000038)  returns 0x00 (0000ms, 0782ms total)
T082C 000:821 JLINK_WriteReg(XPSR, 0x01000000)  returns 0x00 (0000ms, 0782ms total)
T082C 000:821 JLINK_WriteReg(MSP, 0x20000800)  returns 0x00 (0000ms, 0782ms total)
T082C 000:821 JLINK_WriteReg(PSP, 0x20000800)  returns 0x00 (0000ms, 0782ms total)
T082C 000:821 JLINK_WriteReg(CFBP, 0x00000000)  returns 0x00 (0000ms, 0782ms total)
T082C 000:821 JLINK_SetBPEx(Addr = 0x20000000, Type = 0xFFFFFFF2) >0x1F0 JTAG>  returns 0x00000001 (0001ms, 0782ms total)
T082C 000:822 JLINK_Go() >0x1F0 JTAG> >0x1F0 JTAG> >0x1F0 JTAG> >0x1F0 JTAG> >0x1F0 JTAG> >0x1F0 JTAG> >0x1F0 JTAG> >0x310 JTAG> >0x218 JTAG> >0x218 JTAG> >0x218 JTAG> >0x218 JTAG> >0x218 JTAG> >0x218 JTAG> >0x218 JTAG> >0x218 JTAG> >0x218 JTAG> >0x218 JTAG> >0x218 JTAG> >0x218 JTAG> >0x218 JTAG> >0x218 JTAG> >0x218 JTAG> >0x218 JTAG> >0x240 JTAG> >0x240 JTAG> (0039ms, 0783ms total)
T082C 000:861 JLINK_IsHalted() >0x198 JTAG> >0x17A8 JTAG> >0x1F0 JTAG>  returns TRUE (0014ms, 0822ms total)
T082C 000:875 JLINK_ReadReg(R15)  returns 0x20000000 (0000ms, 0822ms total)
T082C 000:875 JLINK_ClrBPEx(BPHandle = 0x00000001)  returns 0x00 (0000ms, 0822ms total)
T082C 000:875 JLINK_ReadReg(R0)  returns 0x00000000 (0000ms, 0822ms total)
T082C 000:875 JLINK_WriteReg(R0, 0x08000000)  returns 0x00 (0000ms, 0822ms total)
T082C 000:875 JLINK_WriteReg(R1, 0x00000800)  returns 0x00 (0000ms, 0822ms total)
T082C 000:875 JLINK_WriteReg(R2, 0x000000FF)  returns 0x00 (0000ms, 0822ms total)
T082C 000:875 JLINK_WriteReg(R3, 0x00000000)  returns 0x00 (0000ms, 0822ms total)
T082C 000:875 JLINK_WriteReg(R4, 0x00000000)  returns 0x00 (0000ms, 0822ms total)
T082C 000:875 JLINK_WriteReg(R5, 0x00000000)  returns 0x00 (0000ms, 0822ms total)
T082C 000:875 JLINK_WriteReg(R6, 0x00000000)  returns 0x00 (0000ms, 0822ms total)
T082C 000:875 JLINK_WriteReg(R7, 0x00000000)  returns 0x00 (0000ms, 0822ms total)
T082C 000:875 JLINK_WriteReg(R8, 0x00000000)  returns 0x00 (0000ms, 0822ms total)
T082C 000:875 JLINK_WriteReg(R9, 0x20000160)  returns 0x00 (0000ms, 0822ms total)
T082C 000:875 JLINK_WriteReg(R10, 0x00000000)  returns 0x00 (0000ms, 0822ms total)
T082C 000:875 JLINK_WriteReg(R11, 0x00000000)  returns 0x00 (0000ms, 0822ms total)
T082C 000:875 JLINK_WriteReg(R12, 0x00000000)  returns 0x00 (0000ms, 0822ms total)
T082C 000:875 JLINK_WriteReg(R13, 0x20000800)  returns 0x00 (0000ms, 0822ms total)
T082C 000:875 JLINK_WriteReg(R14, 0x20000001)  returns 0x00 (0000ms, 0822ms total)
T082C 000:875 JLINK_WriteReg(R15, 0x20000020)  returns 0x00 (0000ms, 0822ms total)
T082C 000:875 JLINK_WriteReg(XPSR, 0x01000000)  returns 0x00 (0000ms, 0822ms total)
T082C 000:875 JLINK_WriteReg(MSP, 0x20000800)  returns 0x00 (0000ms, 0822ms total)
T082C 000:875 JLINK_WriteReg(PSP, 0x20000800)  returns 0x00 (0000ms, 0822ms total)
T082C 000:875 JLINK_WriteReg(CFBP, 0x00000000)  returns 0x00 (0000ms, 0822ms total)
T082C 000:875 JLINK_SetBPEx(Addr = 0x20000000, Type = 0xFFFFFFF2)  returns 0x00000002 (0000ms, 0822ms total)
T082C 000:875 JLINK_Go() >0x1F0 JTAG> >0x1F0 JTAG> >0x1F0 JTAG> >0x1F0 JTAG> >0x1F0 JTAG> >0x1F0 JTAG> >0x310 JTAG> >0x218 JTAG> >0x218 JTAG> >0x218 JTAG> >0x218 JTAG> >0x218 JTAG> >0x240 JTAG> >0x240 JTAG> (0021ms, 0822ms total)
T082C 000:896 JLINK_IsHalted() >0x198 JTAG> >0x17A8 JTAG> >0x1F0 JTAG>  returns TRUE (0014ms, 0843ms total)
T082C 000:910 JLINK_ReadReg(R15)  returns 0x20000000 (0000ms, 0843ms total)
T082C 000:910 JLINK_ClrBPEx(BPHandle = 0x00000002)  returns 0x00 (0000ms, 0843ms total)
T082C 000:910 JLINK_ReadReg(R0)  returns 0x00000001 (0000ms, 0843ms total)
T082C 000:910 JLINK_WriteReg(R0, 0x08000000)  returns 0x00 (0000ms, 0843ms total)
T082C 000:910 JLINK_WriteReg(R1, 0x00000800)  returns 0x00 (0000ms, 0843ms total)
T082C 000:910 JLINK_WriteReg(R2, 0x000000FF)  returns 0x00 (0000ms, 0843ms total)
T082C 000:910 JLINK_WriteReg(R3, 0x00000000)  returns 0x00 (0000ms, 0843ms total)
T082C 000:910 JLINK_WriteReg(R4, 0x00000000)  returns 0x00 (0000ms, 0843ms total)
T082C 000:910 JLINK_WriteReg(R5, 0x00000000)  returns 0x00 (0000ms, 0843ms total)
T082C 000:910 JLINK_WriteReg(R6, 0x00000000)  returns 0x00 (0000ms, 0843ms total)
T082C 000:910 JLINK_WriteReg(R7, 0x00000000)  returns 0x00 (0000ms, 0843ms total)
T082C 000:910 JLINK_WriteReg(R8, 0x00000000)  returns 0x00 (0000ms, 0843ms total)
T082C 000:910 JLINK_WriteReg(R9, 0x20000160)  returns 0x00 (0000ms, 0843ms total)
T082C 000:910 JLINK_WriteReg(R10, 0x00000000)  returns 0x00 (0000ms, 0843ms total)
T082C 000:910 JLINK_WriteReg(R11, 0x00000000)  returns 0x00 (0000ms, 0843ms total)
T082C 000:910 JLINK_WriteReg(R12, 0x00000000)  returns 0x00 (0000ms, 0843ms total)
T082C 000:910 JLINK_WriteReg(R13, 0x20000800)  returns 0x00 (0000ms, 0843ms total)
T082C 000:910 JLINK_WriteReg(R14, 0x20000001)  returns 0x00 (0000ms, 0843ms total)
T082C 000:910 JLINK_WriteReg(R15, 0x200000B6)  returns 0x00 (0000ms, 0843ms total)
T082C 000:910 JLINK_WriteReg(XPSR, 0x01000000)  returns 0x00 (0000ms, 0843ms total)
T082C 000:911 JLINK_WriteReg(MSP, 0x20000800)  returns 0x00 (0000ms, 0844ms total)
T082C 000:911 JLINK_WriteReg(PSP, 0x20000800)  returns 0x00 (0000ms, 0844ms total)
T082C 000:911 JLINK_WriteReg(CFBP, 0x00000000)  returns 0x00 (0000ms, 0844ms total)
T082C 000:911 JLINK_SetBPEx(Addr = 0x20000000, Type = 0xFFFFFFF2)  returns 0x00000003 (0000ms, 0844ms total)
T082C 000:911 JLINK_Go() >0x1F0 JTAG> >0x1F0 JTAG> >0x1F0 JTAG> >0x1F0 JTAG> >0x1F0 JTAG> >0x1F0 JTAG> >0x310 JTAG> >0x218 JTAG> >0x218 JTAG> >0x218 JTAG> >0x240 JTAG> >0x240 JTAG> (0018ms, 0844ms total)
T082C 000:929 JLINK_IsHalted() >0x198 JTAG>  returns FALSE (0002ms, 0862ms total)
T082C 000:981 JLINK_IsHalted() >0x198 JTAG> >0x17A8 JTAG> >0x1F0 JTAG>  returns TRUE (0013ms, 0862ms total)
T082C 000:994 JLINK_ReadReg(R15)  returns 0x20000000 (0000ms, 0862ms total)
T082C 000:994 JLINK_ClrBPEx(BPHandle = 0x00000003)  returns 0x00 (0000ms, 0862ms total)
T082C 000:994 JLINK_ReadReg(R0)  returns 0x00000000 (0000ms, 0862ms total)
T082C 000:995 JLINK_WriteReg(R0, 0x08000800)  returns 0x00 (0000ms, 0862ms total)
T082C 000:995 JLINK_WriteReg(R1, 0x00000800)  returns 0x00 (0000ms, 0862ms total)
T082C 000:995 JLINK_WriteReg(R2, 0x000000FF)  returns 0x00 (0000ms, 0862ms total)
T082C 000:995 JLINK_WriteReg(R3, 0x00000000)  returns 0x00 (0000ms, 0862ms total)
T082C 000:995 JLINK_WriteReg(R4, 0x00000000)  returns 0x00 (0000ms, 0862ms total)
T082C 000:995 JLINK_WriteReg(R5, 0x00000000)  returns 0x00 (0000ms, 0862ms total)
T082C 000:995 JLINK_WriteReg(R6, 0x00000000)  returns 0x00 (0000ms, 0862ms total)
T082C 000:995 JLINK_WriteReg(R7, 0x00000000)  returns 0x00 (0000ms, 0862ms total)
T082C 000:995 JLINK_WriteReg(R8, 0x00000000)  returns 0x00 (0000ms, 0862ms total)
T082C 000:995 JLINK_WriteReg(R9, 0x20000160)  returns 0x00 (0000ms, 0862ms total)
T082C 000:995 JLINK_WriteReg(R10, 0x00000000)  returns 0x00 (0000ms, 0862ms total)
T082C 000:995 JLINK_WriteReg(R11, 0x00000000)  returns 0x00 (0000ms, 0862ms total)
T082C 000:995 JLINK_WriteReg(R12, 0x00000000)  returns 0x00 (0000ms, 0862ms total)
T082C 000:995 JLINK_WriteReg(R13, 0x20000800)  returns 0x00 (0000ms, 0862ms total)
T082C 000:995 JLINK_WriteReg(R14, 0x20000001)  returns 0x00 (0000ms, 0862ms total)
T082C 000:995 JLINK_WriteReg(R15, 0x20000020)  returns 0x00 (0000ms, 0862ms total)
T082C 000:995 JLINK_WriteReg(XPSR, 0x01000000)  returns 0x00 (0000ms, 0862ms total)
T082C 000:995 JLINK_WriteReg(MSP, 0x20000800)  returns 0x00 (0000ms, 0862ms total)
T082C 000:995 JLINK_WriteReg(PSP, 0x20000800)  returns 0x00 (0000ms, 0862ms total)
T082C 000:995 JLINK_WriteReg(CFBP, 0x00000000)  returns 0x00 (0000ms, 0862ms total)
T082C 000:995 JLINK_SetBPEx(Addr = 0x20000000, Type = 0xFFFFFFF2)  returns 0x00000004 (0000ms, 0862ms total)
T082C 000:995 JLINK_Go() >0x1F0 JTAG> >0x1F0 JTAG> >0x1F0 JTAG> >0x1F0 JTAG> >0x1F0 JTAG> >0x1F0 JTAG> >0x310 JTAG> >0x218 JTAG> >0x218 JTAG> >0x218 JTAG> >0x218 JTAG> >0x240 JTAG> >0x240 JTAG> (0020ms, 0862ms total)
T082C 001:015 JLINK_IsHalted() >0x198 JTAG> >0x17A8 JTAG> >0x1F0 JTAG>  returns TRUE (0015ms, 0882ms total)
T082C 001:030 JLINK_ReadReg(R15)  returns 0x20000000 (0000ms, 0882ms total)
T082C 001:030 JLINK_ClrBPEx(BPHandle = 0x00000004)  returns 0x00 (0000ms, 0882ms total)
T082C 001:030 JLINK_ReadReg(R0)  returns 0x00000001 (0000ms, 0882ms total)
T082C 001:030 JLINK_WriteReg(R0, 0x08000800)  returns 0x00 (0000ms, 0882ms total)
T082C 001:030 JLINK_WriteReg(R1, 0x00000800)  returns 0x00 (0000ms, 0882ms total)
T082C 001:030 JLINK_WriteReg(R2, 0x000000FF)  returns 0x00 (0000ms, 0882ms total)
T082C 001:030 JLINK_WriteReg(R3, 0x00000000)  returns 0x00 (0000ms, 0882ms total)
T082C 001:030 JLINK_WriteReg(R4, 0x00000000)  returns 0x00 (0000ms, 0882ms total)
T082C 001:030 JLINK_WriteReg(R5, 0x00000000)  returns 0x00 (0000ms, 0882ms total)
T082C 001:030 JLINK_WriteReg(R6, 0x00000000)  returns 0x00 (0000ms, 0882ms total)
T082C 001:030 JLINK_WriteReg(R7, 0x00000000)  returns 0x00 (0000ms, 0882ms total)
T082C 001:030 JLINK_WriteReg(R8, 0x00000000)  returns 0x00 (0000ms, 0882ms total)
T082C 001:030 JLINK_WriteReg(R9, 0x20000160)  returns 0x00 (0000ms, 0882ms total)
T082C 001:030 JLINK_WriteReg(R10, 0x00000000)  returns 0x00 (0000ms, 0882ms total)
T082C 001:030 JLINK_WriteReg(R11, 0x00000000)  returns 0x00 (0000ms, 0882ms total)
T082C 001:030 JLINK_WriteReg(R12, 0x00000000)  returns 0x00 (0000ms, 0882ms total)
T082C 001:030 JLINK_WriteReg(R13, 0x20000800)  returns 0x00 (0000ms, 0882ms total)
T082C 001:030 JLINK_WriteReg(R14, 0x20000001)  returns 0x00 (0000ms, 0882ms total)
T082C 001:030 JLINK_WriteReg(R15, 0x200000B6)  returns 0x00 (0000ms, 0882ms total)
T082C 001:030 JLINK_WriteReg(XPSR, 0x01000000)  returns 0x00 (0000ms, 0882ms total)
T082C 001:030 JLINK_WriteReg(MSP, 0x20000800)  returns 0x00 (0000ms, 0882ms total)
T082C 001:030 JLINK_WriteReg(PSP, 0x20000800)  returns 0x00 (0000ms, 0882ms total)
T082C 001:030 JLINK_WriteReg(CFBP, 0x00000000)  returns 0x00 (0000ms, 0882ms total)
T082C 001:030 JLINK_SetBPEx(Addr = 0x20000000, Type = 0xFFFFFFF2)  returns 0x00000005 (0000ms, 0882ms total)
T082C 001:030 JLINK_Go() >0x1F0 JTAG> >0x1F0 JTAG> >0x1F0 JTAG> >0x1F0 JTAG> >0x1F0 JTAG> >0x1F0 JTAG> >0x310 JTAG> >0x218 JTAG> >0x218 JTAG> >0x218 JTAG> >0x240 JTAG> >0x240 JTAG> (0018ms, 0882ms total)
T082C 001:048 JLINK_IsHalted() >0x198 JTAG>  returns FALSE (0002ms, 0900ms total)
T082C 001:100 JLINK_IsHalted() >0x198 JTAG> >0x17A8 JTAG> >0x1F0 JTAG>  returns TRUE (0014ms, 0900ms total)
T082C 001:114 JLINK_ReadReg(R15)  returns 0x20000000 (0000ms, 0900ms total)
T082C 001:114 JLINK_ClrBPEx(BPHandle = 0x00000005)  returns 0x00 (0000ms, 0900ms total)
T082C 001:114 JLINK_ReadReg(R0)  returns 0x00000000 (0000ms, 0900ms total)
T082C 001:115 JLINK_WriteReg(R0, 0x08001000)  returns 0x00 (0000ms, 0900ms total)
T082C 001:115 JLINK_WriteReg(R1, 0x00000800)  returns 0x00 (0000ms, 0900ms total)
T082C 001:115 JLINK_WriteReg(R2, 0x000000FF)  returns 0x00 (0000ms, 0900ms total)
T082C 001:115 JLINK_WriteReg(R3, 0x00000000)  returns 0x00 (0000ms, 0900ms total)
T082C 001:115 JLINK_WriteReg(R4, 0x00000000)  returns 0x00 (0000ms, 0900ms total)
T082C 001:115 JLINK_WriteReg(R5, 0x00000000)  returns 0x00 (0000ms, 0900ms total)
T082C 001:115 JLINK_WriteReg(R6, 0x00000000)  returns 0x00 (0000ms, 0900ms total)
T082C 001:115 JLINK_WriteReg(R7, 0x00000000)  returns 0x00 (0000ms, 0900ms total)
T082C 001:115 JLINK_WriteReg(R8, 0x00000000)  returns 0x00 (0000ms, 0900ms total)
T082C 001:115 JLINK_WriteReg(R9, 0x20000160)  returns 0x00 (0000ms, 0900ms total)
T082C 001:115 JLINK_WriteReg(R10, 0x00000000)  returns 0x00 (0000ms, 0900ms total)
T082C 001:115 JLINK_WriteReg(R11, 0x00000000)  returns 0x00 (0000ms, 0900ms total)
T082C 001:115 JLINK_WriteReg(R12, 0x00000000)  returns 0x00 (0000ms, 0900ms total)
T082C 001:115 JLINK_WriteReg(R13, 0x20000800)  returns 0x00 (0000ms, 0900ms total)
T082C 001:115 JLINK_WriteReg(R14, 0x20000001)  returns 0x00 (0000ms, 0900ms total)
T082C 001:115 JLINK_WriteReg(R15, 0x20000020)  returns 0x00 (0000ms, 0900ms total)
T082C 001:115 JLINK_WriteReg(XPSR, 0x01000000)  returns 0x00 (0000ms, 0900ms total)
T082C 001:115 JLINK_WriteReg(MSP, 0x20000800)  returns 0x00 (0000ms, 0900ms total)
T082C 001:115 JLINK_WriteReg(PSP, 0x20000800)  returns 0x00 (0000ms, 0900ms total)
T082C 001:115 JLINK_WriteReg(CFBP, 0x00000000)  returns 0x00 (0000ms, 0900ms total)
T082C 001:115 JLINK_SetBPEx(Addr = 0x20000000, Type = 0xFFFFFFF2)  returns 0x00000006 (0000ms, 0900ms total)
T082C 001:115 JLINK_Go() >0x1F0 JTAG> >0x1F0 JTAG> >0x1F0 JTAG> >0x1F0 JTAG> >0x1F0 JTAG> >0x1F0 JTAG> >0x310 JTAG> >0x218 JTAG> >0x218 JTAG> >0x218 JTAG> >0x218 JTAG> >0x240 JTAG> >0x240 JTAG> (0019ms, 0900ms total)
T082C 001:134 JLINK_IsHalted() >0x198 JTAG> >0x17A8 JTAG> >0x1F0 JTAG>  returns TRUE (0014ms, 0919ms total)
T082C 001:148 JLINK_ReadReg(R15)  returns 0x20000000 (0000ms, 0919ms total)
T082C 001:148 JLINK_ClrBPEx(BPHandle = 0x00000006)  returns 0x00 (0000ms, 0919ms total)
T082C 001:148 JLINK_ReadReg(R0)  returns 0x00000001 (0000ms, 0919ms total)
T082C 001:148 JLINK_WriteReg(R0, 0x08001000)  returns 0x00 (0000ms, 0919ms total)
T082C 001:148 JLINK_WriteReg(R1, 0x00000800)  returns 0x00 (0000ms, 0919ms total)
T082C 001:148 JLINK_WriteReg(R2, 0x000000FF)  returns 0x00 (0000ms, 0919ms total)
T082C 001:148 JLINK_WriteReg(R3, 0x00000000)  returns 0x00 (0000ms, 0919ms total)
T082C 001:148 JLINK_WriteReg(R4, 0x00000000)  returns 0x00 (0000ms, 0919ms total)
T082C 001:148 JLINK_WriteReg(R5, 0x00000000)  returns 0x00 (0000ms, 0919ms total)
T082C 001:148 JLINK_WriteReg(R6, 0x00000000)  returns 0x00 (0000ms, 0919ms total)
T082C 001:148 JLINK_WriteReg(R7, 0x00000000)  returns 0x00 (0000ms, 0919ms total)
T082C 001:148 JLINK_WriteReg(R8, 0x00000000)  returns 0x00 (0000ms, 0919ms total)
T082C 001:148 JLINK_WriteReg(R9, 0x20000160)  returns 0x00 (0000ms, 0919ms total)
T082C 001:148 JLINK_WriteReg(R10, 0x00000000)  returns 0x00 (0000ms, 0919ms total)
T082C 001:148 JLINK_WriteReg(R11, 0x00000000)  returns 0x00 (0000ms, 0919ms total)
T082C 001:148 JLINK_WriteReg(R12, 0x00000000)  returns 0x00 (0000ms, 0919ms total)
T082C 001:148 JLINK_WriteReg(R13, 0x20000800)  returns 0x00 (0000ms, 0919ms total)
T082C 001:148 JLINK_WriteReg(R14, 0x20000001)  returns 0x00 (0000ms, 0919ms total)
T082C 001:148 JLINK_WriteReg(R15, 0x200000B6)  returns 0x00 (0000ms, 0919ms total)
T082C 001:148 JLINK_WriteReg(XPSR, 0x01000000)  returns 0x00 (0001ms, 0919ms total)
T082C 001:149 JLINK_WriteReg(MSP, 0x20000800)  returns 0x00 (0000ms, 0920ms total)
T082C 001:149 JLINK_WriteReg(PSP, 0x20000800)  returns 0x00 (0000ms, 0920ms total)
T082C 001:149 JLINK_WriteReg(CFBP, 0x00000000)  returns 0x00 (0000ms, 0920ms total)
T082C 001:149 JLINK_SetBPEx(Addr = 0x20000000, Type = 0xFFFFFFF2)  returns 0x00000007 (0000ms, 0920ms total)
T082C 001:149 JLINK_Go() >0x1F0 JTAG> >0x1F0 JTAG> >0x1F0 JTAG> >0x1F0 JTAG> >0x1F0 JTAG> >0x1F0 JTAG> >0x310 JTAG> >0x218 JTAG> >0x218 JTAG> >0x240 JTAG> >0x240 JTAG> (0016ms, 0920ms total)
T082C 001:166 JLINK_IsHalted() >0x198 JTAG>  returns FALSE (0001ms, 0937ms total)
T082C 001:217 JLINK_IsHalted() >0x198 JTAG> >0x17A8 JTAG> >0x1F0 JTAG>  returns TRUE (0014ms, 0937ms total)
T082C 001:231 JLINK_ReadReg(R15)  returns 0x20000000 (0000ms, 0937ms total)
T082C 001:231 JLINK_ClrBPEx(BPHandle = 0x00000007)  returns 0x00 (0000ms, 0937ms total)
T082C 001:231 JLINK_ReadReg(R0)  returns 0x00000000 (0000ms, 0937ms total)
T082C 001:231 JLINK_WriteReg(R0, 0x08001800)  returns 0x00 (0000ms, 0937ms total)
T082C 001:231 JLINK_WriteReg(R1, 0x00000800)  returns 0x00 (0000ms, 0937ms total)
T082C 001:231 JLINK_WriteReg(R2, 0x000000FF)  returns 0x00 (0000ms, 0937ms total)
T082C 001:231 JLINK_WriteReg(R3, 0x00000000)  returns 0x00 (0000ms, 0937ms total)
T082C 001:231 JLINK_WriteReg(R4, 0x00000000)  returns 0x00 (0000ms, 0937ms total)
T082C 001:231 JLINK_WriteReg(R5, 0x00000000)  returns 0x00 (0000ms, 0937ms total)
T082C 001:231 JLINK_WriteReg(R6, 0x00000000)  returns 0x00 (0000ms, 0937ms total)
T082C 001:231 JLINK_WriteReg(R7, 0x00000000)  returns 0x00 (0000ms, 0937ms total)
T082C 001:231 JLINK_WriteReg(R8, 0x00000000)  returns 0x00 (0000ms, 0937ms total)
T082C 001:231 JLINK_WriteReg(R9, 0x20000160)  returns 0x00 (0000ms, 0937ms total)
T082C 001:231 JLINK_WriteReg(R10, 0x00000000)  returns 0x00 (0000ms, 0937ms total)
T082C 001:231 JLINK_WriteReg(R11, 0x00000000)  returns 0x00 (0000ms, 0937ms total)
T082C 001:231 JLINK_WriteReg(R12, 0x00000000)  returns 0x00 (0000ms, 0937ms total)
T082C 001:231 JLINK_WriteReg(R13, 0x20000800)  returns 0x00 (0000ms, 0937ms total)
T082C 001:231 JLINK_WriteReg(R14, 0x20000001)  returns 0x00 (0000ms, 0937ms total)
T082C 001:231 JLINK_WriteReg(R15, 0x20000020)  returns 0x00 (0000ms, 0937ms total)
T082C 001:231 JLINK_WriteReg(XPSR, 0x01000000)  returns 0x00 (0000ms, 0937ms total)
T082C 001:231 JLINK_WriteReg(MSP, 0x20000800)  returns 0x00 (0000ms, 0937ms total)
T082C 001:231 JLINK_WriteReg(PSP, 0x20000800)  returns 0x00 (0000ms, 0937ms total)
T082C 001:231 JLINK_WriteReg(CFBP, 0x00000000)  returns 0x00 (0000ms, 0937ms total)
T082C 001:231 JLINK_SetBPEx(Addr = 0x20000000, Type = 0xFFFFFFF2)  returns 0x00000008 (0000ms, 0937ms total)
T082C 001:231 JLINK_Go() >0x1F0 JTAG> >0x1F0 JTAG> >0x1F0 JTAG> >0x1F0 JTAG> >0x1F0 JTAG> >0x1F0 JTAG> >0x310 JTAG> >0x218 JTAG> >0x218 JTAG> >0x218 JTAG> >0x218 JTAG> >0x240 JTAG> >0x240 JTAG> (0020ms, 0937ms total)
T082C 001:251 JLINK_IsHalted() >0x198 JTAG> >0x17A8 JTAG> >0x1F0 JTAG>  returns TRUE (0015ms, 0957ms total)
T082C 001:266 JLINK_ReadReg(R15)  returns 0x20000000 (0000ms, 0957ms total)
T082C 001:266 JLINK_ClrBPEx(BPHandle = 0x00000008)  returns 0x00 (0000ms, 0957ms total)
T082C 001:266 JLINK_ReadReg(R0)  returns 0x00000001 (0000ms, 0957ms total)
T082C 001:266 JLINK_WriteReg(R0, 0x08001800)  returns 0x00 (0000ms, 0957ms total)
T082C 001:266 JLINK_WriteReg(R1, 0x00000800)  returns 0x00 (0000ms, 0957ms total)
T082C 001:266 JLINK_WriteReg(R2, 0x000000FF)  returns 0x00 (0000ms, 0957ms total)
T082C 001:266 JLINK_WriteReg(R3, 0x00000000)  returns 0x00 (0000ms, 0957ms total)
T082C 001:266 JLINK_WriteReg(R4, 0x00000000)  returns 0x00 (0000ms, 0957ms total)
T082C 001:266 JLINK_WriteReg(R5, 0x00000000)  returns 0x00 (0000ms, 0957ms total)
T082C 001:266 JLINK_WriteReg(R6, 0x00000000)  returns 0x00 (0000ms, 0957ms total)
T082C 001:266 JLINK_WriteReg(R7, 0x00000000)  returns 0x00 (0000ms, 0957ms total)
T082C 001:266 JLINK_WriteReg(R8, 0x00000000)  returns 0x00 (0000ms, 0957ms total)
T082C 001:266 JLINK_WriteReg(R9, 0x20000160)  returns 0x00 (0000ms, 0957ms total)
T082C 001:266 JLINK_WriteReg(R10, 0x00000000)  returns 0x00 (0000ms, 0957ms total)
T082C 001:266 JLINK_WriteReg(R11, 0x00000000)  returns 0x00 (0000ms, 0957ms total)
T082C 001:266 JLINK_WriteReg(R12, 0x00000000)  returns 0x00 (0000ms, 0957ms total)
T082C 001:266 JLINK_WriteReg(R13, 0x20000800)  returns 0x00 (0000ms, 0957ms total)
T082C 001:266 JLINK_WriteReg(R14, 0x20000001)  returns 0x00 (0000ms, 0957ms total)
T082C 001:266 JLINK_WriteReg(R15, 0x200000B6)  returns 0x00 (0000ms, 0957ms total)
T082C 001:266 JLINK_WriteReg(XPSR, 0x01000000)  returns 0x00 (0000ms, 0957ms total)
T082C 001:266 JLINK_WriteReg(MSP, 0x20000800)  returns 0x00 (0000ms, 0957ms total)
T082C 001:266 JLINK_WriteReg(PSP, 0x20000800)  returns 0x00 (0000ms, 0957ms total)
T082C 001:266 JLINK_WriteReg(CFBP, 0x00000000)  returns 0x00 (0000ms, 0957ms total)
T082C 001:266 JLINK_SetBPEx(Addr = 0x20000000, Type = 0xFFFFFFF2)  returns 0x00000009 (0000ms, 0957ms total)
T082C 001:266 JLINK_Go() >0x1F0 JTAG> >0x1F0 JTAG> >0x1F0 JTAG> >0x1F0 JTAG> >0x1F0 JTAG> >0x1F0 JTAG> >0x310 JTAG> >0x218 JTAG> >0x218 JTAG> >0x218 JTAG> >0x240 JTAG> >0x240 JTAG> (0018ms, 0957ms total)
T082C 001:284 JLINK_IsHalted() >0x198 JTAG>  returns FALSE (0002ms, 0975ms total)
T082C 001:336 JLINK_IsHalted() >0x198 JTAG> >0x17A8 JTAG> >0x1F0 JTAG>  returns TRUE (0014ms, 0975ms total)
T082C 001:350 JLINK_ReadReg(R15)  returns 0x20000000 (0000ms, 0975ms total)
T082C 001:350 JLINK_ClrBPEx(BPHandle = 0x00000009)  returns 0x00 (0000ms, 0975ms total)
T082C 001:350 JLINK_ReadReg(R0)  returns 0x00000000 (0000ms, 0975ms total)
T082C 001:350 JLINK_WriteReg(R0, 0x08002000)  returns 0x00 (0000ms, 0975ms total)
T082C 001:350 JLINK_WriteReg(R1, 0x00000800)  returns 0x00 (0000ms, 0975ms total)
T082C 001:350 JLINK_WriteReg(R2, 0x000000FF)  returns 0x00 (0000ms, 0975ms total)
T082C 001:350 JLINK_WriteReg(R3, 0x00000000)  returns 0x00 (0000ms, 0975ms total)
T082C 001:350 JLINK_WriteReg(R4, 0x00000000)  returns 0x00 (0000ms, 0975ms total)
T082C 001:350 JLINK_WriteReg(R5, 0x00000000)  returns 0x00 (0000ms, 0975ms total)
T082C 001:350 JLINK_WriteReg(R6, 0x00000000)  returns 0x00 (0000ms, 0975ms total)
T082C 001:350 JLINK_WriteReg(R7, 0x00000000)  returns 0x00 (0000ms, 0975ms total)
T082C 001:350 JLINK_WriteReg(R8, 0x00000000)  returns 0x00 (0000ms, 0975ms total)
T082C 001:350 JLINK_WriteReg(R9, 0x20000160)  returns 0x00 (0000ms, 0975ms total)
T082C 001:350 JLINK_WriteReg(R10, 0x00000000)  returns 0x00 (0000ms, 0975ms total)
T082C 001:350 JLINK_WriteReg(R11, 0x00000000)  returns 0x00 (0000ms, 0975ms total)
T082C 001:350 JLINK_WriteReg(R12, 0x00000000)  returns 0x00 (0000ms, 0975ms total)
T082C 001:350 JLINK_WriteReg(R13, 0x20000800)  returns 0x00 (0000ms, 0975ms total)
T082C 001:350 JLINK_WriteReg(R14, 0x20000001)  returns 0x00 (0000ms, 0975ms total)
T082C 001:350 JLINK_WriteReg(R15, 0x20000020)  returns 0x00 (0000ms, 0975ms total)
T082C 001:350 JLINK_WriteReg(XPSR, 0x01000000)  returns 0x00 (0000ms, 0975ms total)
T082C 001:350 JLINK_WriteReg(MSP, 0x20000800)  returns 0x00 (0000ms, 0975ms total)
T082C 001:350 JLINK_WriteReg(PSP, 0x20000800)  returns 0x00 (0000ms, 0975ms total)
T082C 001:350 JLINK_WriteReg(CFBP, 0x00000000)  returns 0x00 (0001ms, 0975ms total)
T082C 001:351 JLINK_SetBPEx(Addr = 0x20000000, Type = 0xFFFFFFF2)  returns 0x0000000A (0000ms, 0976ms total)
T082C 001:351 JLINK_Go() >0x1F0 JTAG> >0x1F0 JTAG> >0x1F0 JTAG> >0x1F0 JTAG> >0x1F0 JTAG> >0x1F0 JTAG> >0x310 JTAG> >0x218 JTAG> >0x218 JTAG> >0x218 JTAG> >0x218 JTAG> >0x240 JTAG> >0x240 JTAG> (0019ms, 0976ms total)
T082C 001:370 JLINK_IsHalted() >0x198 JTAG> >0x17A8 JTAG> >0x1F0 JTAG>  returns TRUE (0014ms, 0995ms total)
T082C 001:384 JLINK_ReadReg(R15)  returns 0x20000000 (0000ms, 0995ms total)
T082C 001:384 JLINK_ClrBPEx(BPHandle = 0x0000000A)  returns 0x00 (0000ms, 0995ms total)
T082C 001:384 JLINK_ReadReg(R0)  returns 0x00000001 (0000ms, 0995ms total)
T082C 001:384 JLINK_WriteReg(R0, 0x08002000)  returns 0x00 (0000ms, 0995ms total)
T082C 001:384 JLINK_WriteReg(R1, 0x00000800)  returns 0x00 (0000ms, 0995ms total)
T082C 001:384 JLINK_WriteReg(R2, 0x000000FF)  returns 0x00 (0000ms, 0995ms total)
T082C 001:384 JLINK_WriteReg(R3, 0x00000000)  returns 0x00 (0000ms, 0995ms total)
T082C 001:384 JLINK_WriteReg(R4, 0x00000000)  returns 0x00 (0000ms, 0995ms total)
T082C 001:384 JLINK_WriteReg(R5, 0x00000000)  returns 0x00 (0000ms, 0995ms total)
T082C 001:384 JLINK_WriteReg(R6, 0x00000000)  returns 0x00 (0000ms, 0995ms total)
T082C 001:384 JLINK_WriteReg(R7, 0x00000000)  returns 0x00 (0000ms, 0995ms total)
T082C 001:384 JLINK_WriteReg(R8, 0x00000000)  returns 0x00 (0000ms, 0995ms total)
T082C 001:384 JLINK_WriteReg(R9, 0x20000160)  returns 0x00 (0000ms, 0995ms total)
T082C 001:384 JLINK_WriteReg(R10, 0x00000000)  returns 0x00 (0000ms, 0995ms total)
T082C 001:384 JLINK_WriteReg(R11, 0x00000000)  returns 0x00 (0000ms, 0995ms total)
T082C 001:384 JLINK_WriteReg(R12, 0x00000000)  returns 0x00 (0000ms, 0995ms total)
T082C 001:384 JLINK_WriteReg(R13, 0x20000800)  returns 0x00 (0000ms, 0995ms total)
T082C 001:384 JLINK_WriteReg(R14, 0x20000001)  returns 0x00 (0000ms, 0995ms total)
T082C 001:384 JLINK_WriteReg(R15, 0x200000B6)  returns 0x00 (0000ms, 0995ms total)
T082C 001:384 JLINK_WriteReg(XPSR, 0x01000000)  returns 0x00 (0000ms, 0995ms total)
T082C 001:384 JLINK_WriteReg(MSP, 0x20000800)  returns 0x00 (0000ms, 0995ms total)
T082C 001:384 JLINK_WriteReg(PSP, 0x20000800)  returns 0x00 (0000ms, 0995ms total)
T082C 001:384 JLINK_WriteReg(CFBP, 0x00000000)  returns 0x00 (0000ms, 0995ms total)
T082C 001:384 JLINK_SetBPEx(Addr = 0x20000000, Type = 0xFFFFFFF2)  returns 0x0000000B (0000ms, 0995ms total)
T082C 001:384 JLINK_Go() >0x1F0 JTAG> >0x1F0 JTAG> >0x1F0 JTAG> >0x1F0 JTAG> >0x1F0 JTAG> >0x1F0 JTAG> >0x310 JTAG> >0x218 JTAG> >0x218 JTAG> >0x218 JTAG> >0x240 JTAG> >0x240 JTAG> (0018ms, 0995ms total)
T082C 001:402 JLINK_IsHalted() >0x198 JTAG>  returns FALSE (0002ms, 1013ms total)
T082C 001:454 JLINK_IsHalted() >0x198 JTAG> >0x17A8 JTAG> >0x1F0 JTAG>  returns TRUE (0014ms, 1013ms total)
T082C 001:468 JLINK_ReadReg(R15)  returns 0x20000000 (0000ms, 1013ms total)
T082C 001:468 JLINK_ClrBPEx(BPHandle = 0x0000000B)  returns 0x00 (0000ms, 1013ms total)
T082C 001:468 JLINK_ReadReg(R0)  returns 0x00000000 (0000ms, 1013ms total)
T082C 001:468 JLINK_WriteReg(R0, 0x08002800)  returns 0x00 (0000ms, 1013ms total)
T082C 001:468 JLINK_WriteReg(R1, 0x00000800)  returns 0x00 (0000ms, 1013ms total)
T082C 001:468 JLINK_WriteReg(R2, 0x000000FF)  returns 0x00 (0000ms, 1013ms total)
T082C 001:468 JLINK_WriteReg(R3, 0x00000000)  returns 0x00 (0000ms, 1013ms total)
T082C 001:468 JLINK_WriteReg(R4, 0x00000000)  returns 0x00 (0000ms, 1013ms total)
T082C 001:468 JLINK_WriteReg(R5, 0x00000000)  returns 0x00 (0000ms, 1013ms total)
T082C 001:468 JLINK_WriteReg(R6, 0x00000000)  returns 0x00 (0000ms, 1013ms total)
T082C 001:468 JLINK_WriteReg(R7, 0x00000000)  returns 0x00 (0000ms, 1013ms total)
T082C 001:468 JLINK_WriteReg(R8, 0x00000000)  returns 0x00 (0000ms, 1013ms total)
T082C 001:468 JLINK_WriteReg(R9, 0x20000160)  returns 0x00 (0000ms, 1013ms total)
T082C 001:468 JLINK_WriteReg(R10, 0x00000000)  returns 0x00 (0000ms, 1013ms total)
T082C 001:468 JLINK_WriteReg(R11, 0x00000000)  returns 0x00 (0000ms, 1013ms total)
T082C 001:468 JLINK_WriteReg(R12, 0x00000000)  returns 0x00 (0000ms, 1013ms total)
T082C 001:468 JLINK_WriteReg(R13, 0x20000800)  returns 0x00 (0000ms, 1013ms total)
T082C 001:468 JLINK_WriteReg(R14, 0x20000001)  returns 0x00 (0000ms, 1013ms total)
T082C 001:468 JLINK_WriteReg(R15, 0x20000020)  returns 0x00 (0000ms, 1013ms total)
T082C 001:468 JLINK_WriteReg(XPSR, 0x01000000)  returns 0x00 (0000ms, 1013ms total)
T082C 001:468 JLINK_WriteReg(MSP, 0x20000800)  returns 0x00 (0000ms, 1013ms total)
T082C 001:468 JLINK_WriteReg(PSP, 0x20000800)  returns 0x00 (0000ms, 1013ms total)
T082C 001:468 JLINK_WriteReg(CFBP, 0x00000000)  returns 0x00 (0000ms, 1013ms total)
T082C 001:468 JLINK_SetBPEx(Addr = 0x20000000, Type = 0xFFFFFFF2)  returns 0x0000000C (0000ms, 1013ms total)
T082C 001:468 JLINK_Go() >0x1F0 JTAG> >0x1F0 JTAG> >0x1F0 JTAG> >0x1F0 JTAG> >0x1F0 JTAG> >0x1F0 JTAG> >0x310 JTAG> >0x218 JTAG> >0x218 JTAG> >0x218 JTAG> >0x218 JTAG> >0x240 JTAG> >0x240 JTAG> (0020ms, 1013ms total)
T082C 001:488 JLINK_IsHalted() >0x198 JTAG> >0x17A8 JTAG> >0x1F0 JTAG>  returns TRUE (0014ms, 1033ms total)
T082C 001:502 JLINK_ReadReg(R15)  returns 0x20000000 (0000ms, 1033ms total)
T082C 001:502 JLINK_ClrBPEx(BPHandle = 0x0000000C)  returns 0x00 (0000ms, 1033ms total)
T082C 001:502 JLINK_ReadReg(R0)  returns 0x00000001 (0000ms, 1033ms total)
T082C 001:502 JLINK_WriteReg(R0, 0x08002800)  returns 0x00 (0000ms, 1033ms total)
T082C 001:502 JLINK_WriteReg(R1, 0x00000800)  returns 0x00 (0000ms, 1033ms total)
T082C 001:502 JLINK_WriteReg(R2, 0x000000FF)  returns 0x00 (0000ms, 1033ms total)
T082C 001:502 JLINK_WriteReg(R3, 0x00000000)  returns 0x00 (0000ms, 1033ms total)
T082C 001:502 JLINK_WriteReg(R4, 0x00000000)  returns 0x00 (0000ms, 1033ms total)
T082C 001:502 JLINK_WriteReg(R5, 0x00000000)  returns 0x00 (0000ms, 1033ms total)
T082C 001:502 JLINK_WriteReg(R6, 0x00000000)  returns 0x00 (0000ms, 1033ms total)
T082C 001:502 JLINK_WriteReg(R7, 0x00000000)  returns 0x00 (0000ms, 1033ms total)
T082C 001:502 JLINK_WriteReg(R8, 0x00000000)  returns 0x00 (0000ms, 1033ms total)
T082C 001:502 JLINK_WriteReg(R9, 0x20000160)  returns 0x00 (0000ms, 1033ms total)
T082C 001:502 JLINK_WriteReg(R10, 0x00000000)  returns 0x00 (0000ms, 1033ms total)
T082C 001:502 JLINK_WriteReg(R11, 0x00000000)  returns 0x00 (0000ms, 1033ms total)
T082C 001:502 JLINK_WriteReg(R12, 0x00000000)  returns 0x00 (0000ms, 1033ms total)
T082C 001:502 JLINK_WriteReg(R13, 0x20000800)  returns 0x00 (0000ms, 1033ms total)
T082C 001:502 JLINK_WriteReg(R14, 0x20000001)  returns 0x00 (0000ms, 1033ms total)
T082C 001:502 JLINK_WriteReg(R15, 0x200000B6)  returns 0x00 (0000ms, 1033ms total)
T082C 001:502 JLINK_WriteReg(XPSR, 0x01000000)  returns 0x00 (0000ms, 1033ms total)
T082C 001:502 JLINK_WriteReg(MSP, 0x20000800)  returns 0x00 (0000ms, 1033ms total)
T082C 001:502 JLINK_WriteReg(PSP, 0x20000800)  returns 0x00 (0000ms, 1033ms total)
T082C 001:502 JLINK_WriteReg(CFBP, 0x00000000)  returns 0x00 (0000ms, 1033ms total)
T082C 001:502 JLINK_SetBPEx(Addr = 0x20000000, Type = 0xFFFFFFF2)  returns 0x0000000D (0000ms, 1033ms total)
T082C 001:502 JLINK_Go() >0x1F0 JTAG> >0x1F0 JTAG> >0x1F0 JTAG> >0x1F0 JTAG> >0x1F0 JTAG> >0x1F0 JTAG> >0x310 JTAG> >0x218 JTAG> >0x218 JTAG> >0x240 JTAG> >0x240 JTAG> (0016ms, 1033ms total)
T082C 001:518 JLINK_IsHalted() >0x198 JTAG>  returns FALSE (0001ms, 1049ms total)
T082C 001:569 JLINK_IsHalted() >0x198 JTAG> >0x17A8 JTAG> >0x1F0 JTAG>  returns TRUE (0014ms, 1049ms total)
T082C 001:583 JLINK_ReadReg(R15)  returns 0x20000000 (0000ms, 1049ms total)
T082C 001:583 JLINK_ClrBPEx(BPHandle = 0x0000000D)  returns 0x00 (0000ms, 1049ms total)
T082C 001:583 JLINK_ReadReg(R0)  returns 0x00000000 (0000ms, 1049ms total)
T082C 001:583 JLINK_WriteReg(R0, 0x08003000)  returns 0x00 (0000ms, 1049ms total)
T082C 001:583 JLINK_WriteReg(R1, 0x00000800)  returns 0x00 (0000ms, 1049ms total)
T082C 001:583 JLINK_WriteReg(R2, 0x000000FF)  returns 0x00 (0000ms, 1049ms total)
T082C 001:583 JLINK_WriteReg(R3, 0x00000000)  returns 0x00 (0000ms, 1049ms total)
T082C 001:583 JLINK_WriteReg(R4, 0x00000000)  returns 0x00 (0000ms, 1049ms total)
T082C 001:583 JLINK_WriteReg(R5, 0x00000000)  returns 0x00 (0000ms, 1049ms total)
T082C 001:583 JLINK_WriteReg(R6, 0x00000000)  returns 0x00 (0000ms, 1049ms total)
T082C 001:584 JLINK_WriteReg(R7, 0x00000000)  returns 0x00 (0000ms, 1050ms total)
T082C 001:584 JLINK_WriteReg(R8, 0x00000000)  returns 0x00 (0000ms, 1050ms total)
T082C 001:584 JLINK_WriteReg(R9, 0x20000160)  returns 0x00 (0000ms, 1050ms total)
T082C 001:584 JLINK_WriteReg(R10, 0x00000000)  returns 0x00 (0000ms, 1050ms total)
T082C 001:584 JLINK_WriteReg(R11, 0x00000000)  returns 0x00 (0000ms, 1050ms total)
T082C 001:584 JLINK_WriteReg(R12, 0x00000000)  returns 0x00 (0000ms, 1050ms total)
T082C 001:584 JLINK_WriteReg(R13, 0x20000800)  returns 0x00 (0000ms, 1050ms total)
T082C 001:584 JLINK_WriteReg(R14, 0x20000001)  returns 0x00 (0000ms, 1050ms total)
T082C 001:584 JLINK_WriteReg(R15, 0x20000020)  returns 0x00 (0000ms, 1050ms total)
T082C 001:584 JLINK_WriteReg(XPSR, 0x01000000)  returns 0x00 (0000ms, 1050ms total)
T082C 001:584 JLINK_WriteReg(MSP, 0x20000800)  returns 0x00 (0000ms, 1050ms total)
T082C 001:584 JLINK_WriteReg(PSP, 0x20000800)  returns 0x00 (0000ms, 1050ms total)
T082C 001:584 JLINK_WriteReg(CFBP, 0x00000000)  returns 0x00 (0000ms, 1050ms total)
T082C 001:584 JLINK_SetBPEx(Addr = 0x20000000, Type = 0xFFFFFFF2)  returns 0x0000000E (0000ms, 1050ms total)
T082C 001:584 JLINK_Go() >0x1F0 JTAG> >0x1F0 JTAG> >0x1F0 JTAG> >0x1F0 JTAG> >0x1F0 JTAG> >0x1F0 JTAG> >0x310 JTAG> >0x218 JTAG> >0x218 JTAG> >0x218 JTAG> >0x218 JTAG> >0x240 JTAG> >0x240 JTAG> (0019ms, 1050ms total)
T082C 001:603 JLINK_IsHalted() >0x198 JTAG> >0x17A8 JTAG> >0x1F0 JTAG>  returns TRUE (0014ms, 1069ms total)
T082C 001:617 JLINK_ReadReg(R15)  returns 0x20000000 (0000ms, 1069ms total)
T082C 001:617 JLINK_ClrBPEx(BPHandle = 0x0000000E)  returns 0x00 (0000ms, 1069ms total)
T082C 001:617 JLINK_ReadReg(R0)  returns 0x00000001 (0000ms, 1069ms total)
T082C 001:617 JLINK_WriteReg(R0, 0x08003000)  returns 0x00 (0000ms, 1069ms total)
T082C 001:617 JLINK_WriteReg(R1, 0x00000800)  returns 0x00 (0000ms, 1069ms total)
T082C 001:617 JLINK_WriteReg(R2, 0x000000FF)  returns 0x00 (0000ms, 1069ms total)
T082C 001:617 JLINK_WriteReg(R3, 0x00000000)  returns 0x00 (0000ms, 1069ms total)
T082C 001:617 JLINK_WriteReg(R4, 0x00000000)  returns 0x00 (0000ms, 1069ms total)
T082C 001:617 JLINK_WriteReg(R5, 0x00000000)  returns 0x00 (0000ms, 1069ms total)
T082C 001:617 JLINK_WriteReg(R6, 0x00000000)  returns 0x00 (0000ms, 1069ms total)
T082C 001:617 JLINK_WriteReg(R7, 0x00000000)  returns 0x00 (0000ms, 1069ms total)
T082C 001:617 JLINK_WriteReg(R8, 0x00000000)  returns 0x00 (0000ms, 1069ms total)
T082C 001:617 JLINK_WriteReg(R9, 0x20000160)  returns 0x00 (0000ms, 1069ms total)
T082C 001:617 JLINK_WriteReg(R10, 0x00000000)  returns 0x00 (0000ms, 1069ms total)
T082C 001:617 JLINK_WriteReg(R11, 0x00000000)  returns 0x00 (0000ms, 1069ms total)
T082C 001:617 JLINK_WriteReg(R12, 0x00000000)  returns 0x00 (0000ms, 1069ms total)
T082C 001:617 JLINK_WriteReg(R13, 0x20000800)  returns 0x00 (0000ms, 1069ms total)
T082C 001:617 JLINK_WriteReg(R14, 0x20000001)  returns 0x00 (0000ms, 1069ms total)
T082C 001:617 JLINK_WriteReg(R15, 0x200000B6)  returns 0x00 (0000ms, 1069ms total)
T082C 001:617 JLINK_WriteReg(XPSR, 0x01000000)  returns 0x00 (0000ms, 1069ms total)
T082C 001:617 JLINK_WriteReg(MSP, 0x20000800)  returns 0x00 (0000ms, 1069ms total)
T082C 001:617 JLINK_WriteReg(PSP, 0x20000800)  returns 0x00 (0000ms, 1069ms total)
T082C 001:617 JLINK_WriteReg(CFBP, 0x00000000)  returns 0x00 (0001ms, 1069ms total)
T082C 001:618 JLINK_SetBPEx(Addr = 0x20000000, Type = 0xFFFFFFF2)  returns 0x0000000F (0000ms, 1070ms total)
T082C 001:618 JLINK_Go() >0x1F0 JTAG> >0x1F0 JTAG> >0x1F0 JTAG> >0x1F0 JTAG> >0x1F0 JTAG> >0x1F0 JTAG> >0x310 JTAG> >0x218 JTAG> >0x218 JTAG> >0x218 JTAG> >0x240 JTAG> >0x240 JTAG> (0018ms, 1070ms total)
T082C 001:636 JLINK_IsHalted() >0x198 JTAG>  returns FALSE (0001ms, 1088ms total)
T082C 001:687 JLINK_IsHalted() >0x198 JTAG> >0x17A8 JTAG> >0x1F0 JTAG>  returns TRUE (0014ms, 1088ms total)
T082C 001:701 JLINK_ReadReg(R15)  returns 0x20000000 (0000ms, 1088ms total)
T082C 001:701 JLINK_ClrBPEx(BPHandle = 0x0000000F)  returns 0x00 (0000ms, 1088ms total)
T082C 001:701 JLINK_ReadReg(R0)  returns 0x00000000 (0000ms, 1088ms total)
T082C 001:701 JLINK_WriteReg(R0, 0x08003800)  returns 0x00 (0000ms, 1088ms total)
T082C 001:701 JLINK_WriteReg(R1, 0x00000800)  returns 0x00 (0000ms, 1088ms total)
T082C 001:701 JLINK_WriteReg(R2, 0x000000FF)  returns 0x00 (0000ms, 1088ms total)
T082C 001:701 JLINK_WriteReg(R3, 0x00000000)  returns 0x00 (0000ms, 1088ms total)
T082C 001:701 JLINK_WriteReg(R4, 0x00000000)  returns 0x00 (0000ms, 1088ms total)
T082C 001:701 JLINK_WriteReg(R5, 0x00000000)  returns 0x00 (0000ms, 1088ms total)
T082C 001:701 JLINK_WriteReg(R6, 0x00000000)  returns 0x00 (0000ms, 1088ms total)
T082C 001:702 JLINK_WriteReg(R7, 0x00000000)  returns 0x00 (0000ms, 1089ms total)
T082C 001:702 JLINK_WriteReg(R8, 0x00000000)  returns 0x00 (0000ms, 1089ms total)
T082C 001:702 JLINK_WriteReg(R9, 0x20000160)  returns 0x00 (0000ms, 1089ms total)
T082C 001:702 JLINK_WriteReg(R10, 0x00000000)  returns 0x00 (0000ms, 1089ms total)
T082C 001:702 JLINK_WriteReg(R11, 0x00000000)  returns 0x00 (0000ms, 1089ms total)
T082C 001:702 JLINK_WriteReg(R12, 0x00000000)  returns 0x00 (0000ms, 1089ms total)
T082C 001:702 JLINK_WriteReg(R13, 0x20000800)  returns 0x00 (0000ms, 1089ms total)
T082C 001:702 JLINK_WriteReg(R14, 0x20000001)  returns 0x00 (0000ms, 1089ms total)
T082C 001:702 JLINK_WriteReg(R15, 0x20000020)  returns 0x00 (0000ms, 1089ms total)
T082C 001:702 JLINK_WriteReg(XPSR, 0x01000000)  returns 0x00 (0000ms, 1089ms total)
T082C 001:702 JLINK_WriteReg(MSP, 0x20000800)  returns 0x00 (0000ms, 1089ms total)
T082C 001:702 JLINK_WriteReg(PSP, 0x20000800)  returns 0x00 (0000ms, 1089ms total)
T082C 001:702 JLINK_WriteReg(CFBP, 0x00000000)  returns 0x00 (0000ms, 1089ms total)
T082C 001:702 JLINK_SetBPEx(Addr = 0x20000000, Type = 0xFFFFFFF2)  returns 0x00000010 (0000ms, 1089ms total)
T082C 001:702 JLINK_Go() >0x1F0 JTAG> >0x1F0 JTAG> >0x1F0 JTAG> >0x1F0 JTAG> >0x1F0 JTAG> >0x1F0 JTAG> >0x310 JTAG> >0x218 JTAG> >0x218 JTAG> >0x218 JTAG> >0x218 JTAG> >0x240 JTAG> >0x240 JTAG> (0019ms, 1089ms total)
T082C 001:721 JLINK_IsHalted() >0x198 JTAG> >0x17A8 JTAG> >0x1F0 JTAG>  returns TRUE (0014ms, 1108ms total)
T082C 001:735 JLINK_ReadReg(R15)  returns 0x20000000 (0000ms, 1108ms total)
T082C 001:735 JLINK_ClrBPEx(BPHandle = 0x00000010)  returns 0x00 (0000ms, 1108ms total)
T082C 001:735 JLINK_ReadReg(R0)  returns 0x00000001 (0000ms, 1108ms total)
T082C 001:735 JLINK_WriteReg(R0, 0x08003800)  returns 0x00 (0000ms, 1108ms total)
T082C 001:735 JLINK_WriteReg(R1, 0x00000800)  returns 0x00 (0001ms, 1108ms total)
T082C 001:736 JLINK_WriteReg(R2, 0x000000FF)  returns 0x00 (0000ms, 1109ms total)
T082C 001:736 JLINK_WriteReg(R3, 0x00000000)  returns 0x00 (0000ms, 1109ms total)
T082C 001:736 JLINK_WriteReg(R4, 0x00000000)  returns 0x00 (0000ms, 1109ms total)
T082C 001:736 JLINK_WriteReg(R5, 0x00000000)  returns 0x00 (0000ms, 1109ms total)
T082C 001:736 JLINK_WriteReg(R6, 0x00000000)  returns 0x00 (0000ms, 1109ms total)
T082C 001:736 JLINK_WriteReg(R7, 0x00000000)  returns 0x00 (0000ms, 1109ms total)
T082C 001:736 JLINK_WriteReg(R8, 0x00000000)  returns 0x00 (0000ms, 1109ms total)
T082C 001:736 JLINK_WriteReg(R9, 0x20000160)  returns 0x00 (0000ms, 1109ms total)
T082C 001:736 JLINK_WriteReg(R10, 0x00000000)  returns 0x00 (0000ms, 1109ms total)
T082C 001:736 JLINK_WriteReg(R11, 0x00000000)  returns 0x00 (0000ms, 1109ms total)
T082C 001:736 JLINK_WriteReg(R12, 0x00000000)  returns 0x00 (0000ms, 1109ms total)
T082C 001:736 JLINK_WriteReg(R13, 0x20000800)  returns 0x00 (0000ms, 1109ms total)
T082C 001:736 JLINK_WriteReg(R14, 0x20000001)  returns 0x00 (0000ms, 1109ms total)
T082C 001:736 JLINK_WriteReg(R15, 0x200000B6)  returns 0x00 (0000ms, 1109ms total)
T082C 001:736 JLINK_WriteReg(XPSR, 0x01000000)  returns 0x00 (0000ms, 1109ms total)
T082C 001:736 JLINK_WriteReg(MSP, 0x20000800)  returns 0x00 (0000ms, 1109ms total)
T082C 001:736 JLINK_WriteReg(PSP, 0x20000800)  returns 0x00 (0000ms, 1109ms total)
T082C 001:736 JLINK_WriteReg(CFBP, 0x00000000)  returns 0x00 (0000ms, 1109ms total)
T082C 001:736 JLINK_SetBPEx(Addr = 0x20000000, Type = 0xFFFFFFF2)  returns 0x00000011 (0000ms, 1109ms total)
T082C 001:736 JLINK_Go() >0x1F0 JTAG> >0x1F0 JTAG> >0x1F0 JTAG> >0x1F0 JTAG> >0x1F0 JTAG> >0x1F0 JTAG> >0x310 JTAG> >0x218 JTAG> >0x218 JTAG> >0x240 JTAG> >0x240 JTAG> (0017ms, 1109ms total)
